
T2748 000:037 SEGGER J-Link V6.16c Log File (0000ms, 0023ms total)
T2748 000:037 DLL Compiled: Jun 16 2017 18:14:49 (0000ms, 0023ms total)
T2748 000:037 Logging started @ 2019-10-01 23:10 (0000ms, 0023ms total)
T2748 000:037 JLINK_SetWarnOutHandler(...) (0000ms, 0023ms total)
T2748 000:037 JLINK_OpenEx(...)
Firmware: Energy Micro EFM32 compiled Mar  1 2013 14:08:50
Hardware: V7.00
S/N: 440023407
Feature(s): GDBWEBSRV Webserver running on local port 19080 (0011ms, 0034ms total)
T2748 000:037   returns O.K. (0011ms, 0034ms total)
T2748 000:048 JLINK_GetEmuCaps()  returns 0xBAEA5833 (0000ms, 0034ms total)
T2748 000:048 JLINK_TIF_GetAvailable(...) (0000ms, 0034ms total)
T2748 000:048 JLINK_SetErrorOutHandler(...) (0000ms, 0034ms total)
T2748 000:048 JLINK_ExecCommand("ProjectFile = "C:\Users\Fujitsu\Desktop\ARM labs\lab2\JLinkSettings.ini"", ...).   returns 0x00 (0074ms, 0108ms total)
T2748 000:122 JLINK_ExecCommand("Device = EFM32GG990F1024", ...). Device "EFM32GG990F1024" selected.  returns 0x00 (0002ms, 0110ms total)
T2748 000:124 JLINK_ExecCommand("DisableConnectionTimeout", ...).   returns 0x01 (0000ms, 0110ms total)
T2748 000:124 JLINK_GetHardwareVersion()  returns 0x11170 (0000ms, 0110ms total)
T2748 000:124 JLINK_GetDLLVersion()  returns 61603 (0000ms, 0110ms total)
T2748 000:124 JLINK_GetFirmwareString(...) (0000ms, 0110ms total)
T2748 000:124 JLINK_GetDLLVersion()  returns 61603 (0000ms, 0110ms total)
T2748 000:124 JLINK_GetCompileDateTime() (0000ms, 0110ms total)
T2748 000:124 JLINK_GetFirmwareString(...) (0000ms, 0110ms total)
T2748 000:124 JLINK_GetHardwareVersion()  returns 0x11170 (0000ms, 0110ms total)
T2748 000:124 JLINK_TIF_Select(JLINKARM_TIF_SWD)  returns 0x00 (0001ms, 0111ms total)
T2748 000:125 JLINK_SetSpeed(5000) (0000ms, 0111ms total)
T2748 000:125 JLINK_GetId() >0x10B TIF>Found SW-DP with ID 0x2BA01477 >0x0D TIF> >0x28 TIF> >0x0D TIF> >0x28 TIF> >0x0D TIF> >0x28 TIF> >0x0D TIF> >0x28 TIF> >0x0D TIF> >0x28 TIF> >0x0D TIF> >0x21 TIF> >0x0D TIF> >0x21 TIF> >0x0D TIF> >0x28 TIF> >0x0D TIF> >0x21 TIF> >0x0D TIF> >0x21 TIF> >0x10B TIF>Found SW-DP with ID 0x2BA01477 >0x0D TIF> >0x28 TIF> >0x0D TIF> >0x28 TIF> >0x0D TIF> >0x28 TIF> >0x0D TIF> >0x28 TIF> >0x0D TIF> >0x21 TIF> >0x0D TIF> >0x28 TIF>Scanning APs, stopping at first AHB-AP found.
 >0x0D TIF> >0x28 TIF> >0x0D TIF> >0x21 TIF> >0x0D TIF> >0x21 TIF>AP[0] IDR: 0x24770011 (AHB-AP) >0x0D TIF> >0x28 TIF> >0x0D TIF> >0x21 TIF> >0x0D TIF> >0x21 TIF>AHB-AP ROM: 0xE00FF000 (Base addr. of first ROM table) >0x0D TIF> >0x28 TIF> >0x0D TIF> >0x28 TIF> >0x0D TIF> >0x28 TIF> >0x0D TIF> >0x21 TIF> >0x0D TIF> >0x21 TIF> >0x0D TIF> >0x28 TIF> >0x0D TIF> >0x21 TIF> >0x0D TIF> >0x21 TIF>CPUID reg: 0x412FC231. Implementer code: 0x41 (ARM)Found Cortex-M3 r2p1, Little endian. >0x0D TIF> >0x28 TIF>
 -- CPU_ReadMem(4 bytes @ 0xE000EDF0) -- CPU_WriteMem(4 bytes @ 0xE000EDF0) -- CPU_ReadMem(4 bytes @ 0xE0002000)FPUnit: 6 code (BP) slots and 2 literal slots -- CPU_ReadMem(4 bytes @ 0xE000EDFC) -- CPU_WriteMem(4 bytes @ 0xE000EDFC) -- CPU_ReadMem(4 bytes @ 0xE0001000) -- CPU_WriteMem(4 bytes @ 0xE0001000) -- CPU_ReadMem(4 bytes @ 0xE000ED88) -- CPU_WriteMem(4 bytes @ 0xE000ED88) -- CPU_ReadMem(4 bytes @ 0xE000ED88) -- CPU_WriteMem(4 bytes @ 0xE000ED88)CoreSight components:ROMTbl[0] @ E00FF000
 -- CPU_ReadMem(16 bytes @ 0xE00FF000) -- CPU_ReadMem(16 bytes @ 0xE000EFF0) -- CPU_ReadMem(16 bytes @ 0xE000EFE0)ROMTbl[0][0]: E000E000, CID: B105E00D, PID: 000BB000 SCS -- CPU_ReadMem(16 bytes @ 0xE0001FF0) -- CPU_ReadMem(16 bytes @ 0xE0001FE0)ROMTbl[0][1]: E0001000, CID: B105E00D, PID: 003BB002 DWT -- CPU_ReadMem(16 bytes @ 0xE0002FF0) -- CPU_ReadMem(16 bytes @ 0xE0002FE0)ROMTbl[0][2]: E0002000, CID: B105E00D, PID: 002BB003 FPB -- CPU_ReadMem(16 bytes @ 0xE0000FF0)
 -- CPU_ReadMem(16 bytes @ 0xE0000FE0)ROMTbl[0][3]: E0000000, CID: B105E00D, PID: 003BB001 ITM -- CPU_ReadMem(16 bytes @ 0xE00FF010) -- CPU_ReadMem(16 bytes @ 0xE0040FF0) -- CPU_ReadMem(16 bytes @ 0xE0040FE0)ROMTbl[0][4]: E0040000, CID: B105900D, PID: 003BB923 TPIU-Lite -- CPU_ReadMem(16 bytes @ 0xE0041FF0) -- CPU_ReadMem(16 bytes @ 0xE0041FE0)ROMTbl[0][5]: E0041000, CID: B105900D, PID: 003BB924 ETM-M3 >0x0D TIF> >0x21 TIF>  returns 0x2BA01477 (0052ms, 0163ms total)
T2748 000:177 JLINK_GetDLLVersion()  returns 61603 (0000ms, 0163ms total)
T2748 000:177 JLINK_CORE_GetFound()  returns 0x30000FF (0000ms, 0163ms total)
T2748 000:177 JLINK_GetDebugInfo(0x100 = JLINKARM_ROM_TABLE_ADDR_INDEX) -- Value=0xE00FF000  returns 0x00 (0000ms, 0163ms total)
T2748 000:177 JLINK_GetDebugInfo(0x100 = JLINKARM_ROM_TABLE_ADDR_INDEX) -- Value=0xE00FF000  returns 0x00 (0000ms, 0163ms total)
T2748 000:177 JLINK_GetDebugInfo(0x101 = JLINKARM_DEBUG_INFO_ETM_ADDR_INDEX) -- Value=0xE0041000  returns 0x00 (0000ms, 0163ms total)
T2748 000:177 JLINK_ReadMemEx(0xE0041FD0, 0x0020 Bytes, ..., Flags = 0x02000004) -- CPU_ReadMem(32 bytes @ 0xE0041FD0) - Data: 04 00 00 00 00 00 00 00 00 00 00 00 00 00 00 00 ...  returns 0x20 (0000ms, 0163ms total)
T2748 000:177 JLINK_GetDebugInfo(0x102 = JLINKARM_DEBUG_INFO_MTB_ADDR_INDEX) -- Value=0x00000000  returns 0x00 (0000ms, 0163ms total)
T2748 000:177 JLINK_GetDebugInfo(0x103 = JLINKARM_DEBUG_INFO_TPIU_ADDR_INDEX) -- Value=0xE0040000  returns 0x00 (0000ms, 0163ms total)
T2748 000:177 JLINK_GetDebugInfo(0x104 = JLINKARM_DEBUG_INFO_ITM_ADDR_INDEX) -- Value=0xE0000000  returns 0x00 (0000ms, 0163ms total)
T2748 000:177 JLINK_GetDebugInfo(0x105 = JLINKARM_DEBUG_INFO_DWT_ADDR_INDEX) -- Value=0xE0001000  returns 0x00 (0000ms, 0163ms total)
T2748 000:177 JLINK_GetDebugInfo(0x106 = JLINKARM_DEBUG_INFO_FPB_ADDR_INDEX) -- Value=0xE0002000  returns 0x00 (0000ms, 0163ms total)
T2748 000:177 JLINK_GetDebugInfo(0x107 = JLINKARM_DEBUG_INFO_NVIC_ADDR_INDEX) -- Value=0xE000E000  returns 0x00 (0000ms, 0163ms total)
T2748 000:177 JLINK_GetDebugInfo(0x10C = JLINKARM_DEBUG_INFO_DBG_ADDR_INDEX) -- Value=0xE000EDF0  returns 0x00 (0000ms, 0163ms total)
T2748 000:177 JLINK_ReadMemU32(0xE000ED00, 0x0001 Items, ...) -- CPU_ReadMem(4 bytes @ 0xE000ED00) - Data: 31 C2 2F 41  returns 0x01 (0001ms, 0164ms total)
T2748 000:178 JLINK_GetDebugInfo(0x10F = JLINKARM_DEBUG_INFO_HAS_CORTEX_M_SECURITY_EXT_INDEX) -- Value=0x00000000  returns 0x00 (0000ms, 0164ms total)
T2748 000:178 JLINK_SetResetType(JLINKARM_CM3_RESET_TYPE_NORMAL)  returns JLINKARM_CM3_RESET_TYPE_NORMAL (0000ms, 0164ms total)
T2748 000:178 JLINK_Reset() -- CPU_WriteMem(4 bytes @ 0xE0002000) -- CPU_ReadMem(4 bytes @ 0xE000EDFC) -- CPU_WriteMem(4 bytes @ 0xE000EDFC) -- CPU_ReadMem(4 bytes @ 0xE0001000) (0013ms, 0177ms total)
T2748 000:191 JLINK_ReadReg(R15 (PC))  returns 0x00000100 (0000ms, 0177ms total)
T2748 000:191 JLINK_ReadReg(XPSR)  returns 0x01000000 (0000ms, 0177ms total)
T2748 000:191 JLINK_Halt()  returns 0x00 (0000ms, 0177ms total)
T2748 000:191 JLINK_ReadMemU32(0xE000EDF0, 0x0001 Items, ...) -- CPU_ReadMem(4 bytes @ 0xE000EDF0) - Data: 03 00 03 00  returns 0x01 (0000ms, 0177ms total)
T2748 000:191 JLINK_WriteU32(0xE000EDF0, 0xA05F0003) -- CPU_WriteMem(4 bytes @ 0xE000EDF0)  returns 0x00 (0001ms, 0178ms total)
T2748 000:192 JLINK_WriteU32(0xE000EDFC, 0x01000000) -- CPU_WriteMem(4 bytes @ 0xE000EDFC)  returns 0x00 (0000ms, 0178ms total)
T2748 000:192 JLINK_GetHWStatus(...)  returns 0x00 (0002ms, 0180ms total)
T2748 000:194 JLINK_GetNumBPUnits(Type = 0xFFFFFF00)  returns 0x06 (0000ms, 0180ms total)
T2748 000:194 JLINK_GetNumBPUnits(Type = 0xF0)  returns 0x2000 (0000ms, 0180ms total)
T2748 000:194 JLINK_GetNumWPUnits()  returns 0x04 (0000ms, 0180ms total)
T2748 000:194 JLINK_GetSpeed()  returns 0xFA0 (0000ms, 0180ms total)
T2748 000:194 JLINK_ReadMemU32(0xE000E004, 0x0001 Items, ...) -- CPU_ReadMem(4 bytes @ 0xE000E004) - Data: 01 00 00 00  returns 0x01 (0000ms, 0180ms total)
T2748 000:194 JLINK_ReadMemU32(0xE000E004, 0x0001 Items, ...) -- CPU_ReadMem(4 bytes @ 0xE000E004) - Data: 01 00 00 00  returns 0x01 (0001ms, 0181ms total)
T2748 000:195 JLINK_WriteMemEx(0xE0001000, 0x001C Bytes, ..., Flags = 0x02000004) - Data: 01 00 00 00 00 00 00 00 00 00 00 00 00 00 00 00 ... -- CPU_WriteMem(28 bytes @ 0xE0001000)  returns 0x1C (0001ms, 0182ms total)
T2748 000:196 JLINK_ReadReg(R15 (PC))  returns 0x00000100 (0000ms, 0182ms total)
T2748 000:196 JLINK_ReadReg(XPSR)  returns 0x01000000 (0000ms, 0182ms total)
T2748 000:255 JLINK_SetResetType(JLINKARM_CM3_RESET_TYPE_NORMAL)  returns JLINKARM_CM3_RESET_TYPE_NORMAL (0000ms, 0182ms total)
T2748 000:255 JLINK_Reset() -- CPU_WriteMem(4 bytes @ 0xE0002000) -- CPU_ReadMem(4 bytes @ 0xE000EDFC) -- CPU_WriteMem(4 bytes @ 0xE000EDFC) -- CPU_ReadMem(4 bytes @ 0xE0001000) (0013ms, 0195ms total)
T2748 000:268 JLINK_ReadReg(R15 (PC))  returns 0x00000100 (0000ms, 0195ms total)
T2748 000:268 JLINK_ReadReg(XPSR)  returns 0x01000000 (0000ms, 0195ms total)
T2748 000:268 JLINK_ReadMemEx(0x000000E0, 0x003C Bytes, ..., Flags = 0x02000000) -- CPU_ReadMem(128 bytes @ 0x000000C0) -- Updating C cache (128 bytes @ 0x000000C0) -- Read from C cache (60 bytes @ 0x000000E0) - Data: 00 00 00 00 00 00 00 00 00 00 00 00 00 00 00 00 ...  returns 0x3C (0002ms, 0197ms total)
T2748 000:270 JLINK_ReadMemEx(0x0000011C, 0x003C Bytes, ..., Flags = 0x02000000) -- CPU_ReadMem(64 bytes @ 0x00000140) -- Updating C cache (64 bytes @ 0x00000140) -- Read from C cache (60 bytes @ 0x0000011C) - Data: 03 B5 4F F0 00 00 B1 FB F0 F1 03 BD 3F B5 4F F0 ...  returns 0x3C (0001ms, 0198ms total)
T2748 000:333 JLINK_ReadMemEx(0xE000ED04, 0x0004 Bytes, ..., Flags = 0x02000000) -- CPU_ReadMem(4 bytes @ 0xE000ED04) - Data: 00 00 00 00  returns 0x04 (0001ms, 0199ms total)
T2748 000:334 JLINK_ReadMemEx(0xE000ED08, 0x0004 Bytes, ..., Flags = 0x02000000) -- CPU_ReadMem(4 bytes @ 0xE000ED08) - Data: 00 00 00 00  returns 0x04 (0000ms, 0199ms total)
T2748 000:334 JLINK_ReadMemEx(0xE000ED0C, 0x0004 Bytes, ..., Flags = 0x02000000) -- CPU_ReadMem(4 bytes @ 0xE000ED0C) - Data: 00 00 05 FA  returns 0x04 (0001ms, 0200ms total)
T2748 000:335 JLINK_ReadMemEx(0xE000ED18, 0x0004 Bytes, ..., Flags = 0x02000000) -- CPU_ReadMem(4 bytes @ 0xE000ED18) - Data: 00 00 00 00  returns 0x04 (0000ms, 0200ms total)
T2748 000:335 JLINK_ReadMemEx(0xE000ED1C, 0x0004 Bytes, ..., Flags = 0x02000000) -- CPU_ReadMem(4 bytes @ 0xE000ED1C) - Data: 00 00 00 00  returns 0x04 (0000ms, 0200ms total)
T2748 000:335 JLINK_ReadMemEx(0xE000ED20, 0x0004 Bytes, ..., Flags = 0x02000000) -- CPU_ReadMem(4 bytes @ 0xE000ED20) - Data: 00 00 00 00  returns 0x04 (0000ms, 0200ms total)
T2748 000:335 JLINK_ReadMemEx(0xE000ED24, 0x0004 Bytes, ..., Flags = 0x02000000) -- CPU_ReadMem(4 bytes @ 0xE000ED24) - Data: 00 00 00 00  returns 0x04 (0001ms, 0201ms total)
T2748 000:336 JLINK_ReadMemEx(0xE000EDFC, 0x0004 Bytes, ..., Flags = 0x02000000) -- CPU_ReadMem(4 bytes @ 0xE000EDFC) - Data: 00 00 00 01  returns 0x04 (0000ms, 0201ms total)
T2748 000:336 JLINK_ReadMemEx(0xE000E100, 0x0020 Bytes, ..., Flags = 0x02000000) -- CPU_ReadMem(32 bytes @ 0xE000E100) - Data: 00 00 00 00 00 00 00 00 00 00 00 00 00 00 00 00 ...  returns 0x20 (0002ms, 0203ms total)
T2748 000:338 JLINK_ReadMemEx(0xE000E200, 0x0020 Bytes, ..., Flags = 0x02000000) -- CPU_ReadMem(32 bytes @ 0xE000E200) - Data: 00 00 00 00 00 00 00 00 00 00 00 00 00 00 00 00 ...  returns 0x20 (0000ms, 0203ms total)
T2748 000:338 JLINK_ReadMemEx(0xE000E300, 0x0020 Bytes, ..., Flags = 0x02000000) -- CPU_ReadMem(32 bytes @ 0xE000E300) - Data: 00 00 00 00 00 00 00 00 00 00 00 00 00 00 00 00 ...  returns 0x20 (0001ms, 0204ms total)
T2748 000:339 JLINK_ReadMemEx(0xE000E400, 0x0100 Bytes, ..., Flags = 0x02000000) -- CPU_ReadMem(256 bytes @ 0xE000E400) - Data: 00 00 00 00 00 00 00 00 00 00 00 00 00 00 00 00 ...  returns 0x100 (0003ms, 0207ms total)
T2748 000:342 JLINK_ReadMemEx(0xE000ED04, 0x0004 Bytes, ..., Flags = 0x02000000) -- CPU_ReadMem(4 bytes @ 0xE000ED04) - Data: 00 00 00 00  returns 0x04 (0001ms, 0208ms total)
T2748 000:343 JLINK_ReadMemEx(0xE000ED08, 0x0004 Bytes, ..., Flags = 0x02000000) -- CPU_ReadMem(4 bytes @ 0xE000ED08) - Data: 00 00 00 00  returns 0x04 (0000ms, 0208ms total)
T2748 000:343 JLINK_ReadMemEx(0xE000ED0C, 0x0004 Bytes, ..., Flags = 0x02000000) -- CPU_ReadMem(4 bytes @ 0xE000ED0C) - Data: 00 00 05 FA  returns 0x04 (0001ms, 0209ms total)
T2748 000:344 JLINK_ReadMemEx(0xE000ED18, 0x0004 Bytes, ..., Flags = 0x02000000) -- CPU_ReadMem(4 bytes @ 0xE000ED18) - Data: 00 00 00 00  returns 0x04 (0000ms, 0209ms total)
T2748 000:344 JLINK_ReadMemEx(0xE000ED1C, 0x0004 Bytes, ..., Flags = 0x02000000) -- CPU_ReadMem(4 bytes @ 0xE000ED1C) - Data: 00 00 00 00  returns 0x04 (0001ms, 0210ms total)
T2748 000:345 JLINK_ReadMemEx(0xE000ED20, 0x0004 Bytes, ..., Flags = 0x02000000) -- CPU_ReadMem(4 bytes @ 0xE000ED20) - Data: 00 00 00 00  returns 0x04 (0000ms, 0210ms total)
T2748 000:345 JLINK_ReadMemEx(0xE000ED24, 0x0004 Bytes, ..., Flags = 0x02000000) -- CPU_ReadMem(4 bytes @ 0xE000ED24) - Data: 00 00 00 00  returns 0x04 (0001ms, 0211ms total)
T2748 000:346 JLINK_ReadMemEx(0xE000EDFC, 0x0004 Bytes, ..., Flags = 0x02000000) - Data: 00 00 00 01  returns 0x04 (0000ms, 0211ms total)
T2748 000:346 JLINK_ReadMemEx(0xE000E100, 0x0020 Bytes, ..., Flags = 0x02000000) -- CPU_ReadMem(32 bytes @ 0xE000E100) - Data: 00 00 00 00 00 00 00 00 00 00 00 00 00 00 00 00 ...  returns 0x20 (0001ms, 0212ms total)
T2748 000:347 JLINK_ReadMemEx(0xE000E200, 0x0020 Bytes, ..., Flags = 0x02000000) -- CPU_ReadMem(32 bytes @ 0xE000E200) - Data: 00 00 00 00 00 00 00 00 00 00 00 00 00 00 00 00 ...  returns 0x20 (0000ms, 0212ms total)
T2748 000:347 JLINK_ReadMemEx(0xE000E300, 0x0020 Bytes, ..., Flags = 0x02000000) -- CPU_ReadMem(32 bytes @ 0xE000E300) - Data: 00 00 00 00 00 00 00 00 00 00 00 00 00 00 00 00 ...  returns 0x20 (0000ms, 0212ms total)
T2748 000:347 JLINK_ReadMemEx(0xE000E400, 0x0100 Bytes, ..., Flags = 0x02000000) -- CPU_ReadMem(256 bytes @ 0xE000E400) - Data: 00 00 00 00 00 00 00 00 00 00 00 00 00 00 00 00 ...  returns 0x100 (0003ms, 0215ms total)
T2748 000:371 JLINK_ReadMemEx(0xE000ED10, 0x0004 Bytes, ..., Flags = 0x02000000) -- CPU_ReadMem(4 bytes @ 0xE000ED10) - Data: 00 00 00 00  returns 0x04 (0001ms, 0216ms total)
T2748 000:372 JLINK_ReadMemEx(0xE000ED14, 0x0004 Bytes, ..., Flags = 0x02000000) -- CPU_ReadMem(4 bytes @ 0xE000ED14) - Data: 00 02 00 00  returns 0x04 (0000ms, 0216ms total)
T2748 000:391 JLINK_ReadMemEx(0xE000ED10, 0x0004 Bytes, ..., Flags = 0x02000000) -- CPU_ReadMem(4 bytes @ 0xE000ED10) - Data: 00 00 00 00  returns 0x04 (0001ms, 0217ms total)
T2748 000:392 JLINK_ReadMemEx(0xE000ED28, 0x0004 Bytes, ..., Flags = 0x02000000) -- CPU_ReadMem(4 bytes @ 0xE000ED28) - Data: 00 00 00 00  returns 0x04 (0001ms, 0218ms total)
T2748 000:393 JLINK_ReadMemEx(0xE000ED2C, 0x0004 Bytes, ..., Flags = 0x02000000) -- CPU_ReadMem(4 bytes @ 0xE000ED2C) - Data: 00 00 00 00  returns 0x04 (0000ms, 0218ms total)
T2748 000:393 JLINK_ReadMemEx(0xE000ED30, 0x0004 Bytes, ..., Flags = 0x02000000) -- CPU_ReadMem(4 bytes @ 0xE000ED30) - Data: 09 00 00 00  returns 0x04 (0001ms, 0219ms total)
T2748 000:394 JLINK_ReadMemEx(0xE000ED34, 0x0004 Bytes, ..., Flags = 0x02000000) -- CPU_ReadMem(4 bytes @ 0xE000ED34) - Data: F8 ED 00 E0  returns 0x04 (0000ms, 0219ms total)
T2748 000:394 JLINK_ReadMemEx(0xE000ED38, 0x0004 Bytes, ..., Flags = 0x02000000) -- CPU_ReadMem(4 bytes @ 0xE000ED38) - Data: F8 ED 00 E0  returns 0x04 (0000ms, 0219ms total)
T2748 000:394 JLINK_ReadMemEx(0xE000ED3C, 0x0004 Bytes, ..., Flags = 0x02000000) -- CPU_ReadMem(4 bytes @ 0xE000ED3C) - Data: 00 00 00 00  returns 0x04 (0001ms, 0220ms total)
T2748 000:456 JLINK_ReadMemEx(0xE000ED04, 0x0004 Bytes, ..., Flags = 0x02000000) -- CPU_ReadMem(4 bytes @ 0xE000ED04) - Data: 00 00 00 00  returns 0x04 (0001ms, 0221ms total)
T2748 000:457 JLINK_ReadMemEx(0xE000ED08, 0x0004 Bytes, ..., Flags = 0x02000000) -- CPU_ReadMem(4 bytes @ 0xE000ED08) - Data: 00 00 00 00  returns 0x04 (0000ms, 0221ms total)
T2748 000:457 JLINK_ReadMemEx(0xE000ED0C, 0x0004 Bytes, ..., Flags = 0x02000000) -- CPU_ReadMem(4 bytes @ 0xE000ED0C) - Data: 00 00 05 FA  returns 0x04 (0001ms, 0222ms total)
T2748 000:458 JLINK_ReadMemEx(0xE000ED18, 0x0004 Bytes, ..., Flags = 0x02000000) -- CPU_ReadMem(4 bytes @ 0xE000ED18) - Data: 00 00 00 00  returns 0x04 (0000ms, 0222ms total)
T2748 000:458 JLINK_ReadMemEx(0xE000ED1C, 0x0004 Bytes, ..., Flags = 0x02000000) -- CPU_ReadMem(4 bytes @ 0xE000ED1C) - Data: 00 00 00 00  returns 0x04 (0001ms, 0223ms total)
T2748 000:459 JLINK_ReadMemEx(0xE000ED20, 0x0004 Bytes, ..., Flags = 0x02000000) -- CPU_ReadMem(4 bytes @ 0xE000ED20) - Data: 00 00 00 00  returns 0x04 (0000ms, 0223ms total)
T2748 000:459 JLINK_ReadMemEx(0xE000ED24, 0x0004 Bytes, ..., Flags = 0x02000000) -- CPU_ReadMem(4 bytes @ 0xE000ED24) - Data: 00 00 00 00  returns 0x04 (0000ms, 0223ms total)
T2748 000:459 JLINK_ReadMemEx(0xE000EDFC, 0x0004 Bytes, ..., Flags = 0x02000000) - Data: 00 00 00 01  returns 0x04 (0001ms, 0224ms total)
T2748 000:460 JLINK_ReadMemEx(0xE000E100, 0x0020 Bytes, ..., Flags = 0x02000000) -- CPU_ReadMem(32 bytes @ 0xE000E100) - Data: 00 00 00 00 00 00 00 00 00 00 00 00 00 00 00 00 ...  returns 0x20 (0000ms, 0224ms total)
T2748 000:460 JLINK_ReadMemEx(0xE000E200, 0x0020 Bytes, ..., Flags = 0x02000000) -- CPU_ReadMem(32 bytes @ 0xE000E200) - Data: 00 00 00 00 00 00 00 00 00 00 00 00 00 00 00 00 ...  returns 0x20 (0001ms, 0225ms total)
T2748 000:461 JLINK_ReadMemEx(0xE000E300, 0x0020 Bytes, ..., Flags = 0x02000000) -- CPU_ReadMem(32 bytes @ 0xE000E300) - Data: 00 00 00 00 00 00 00 00 00 00 00 00 00 00 00 00 ...  returns 0x20 (0001ms, 0226ms total)
T2748 000:462 JLINK_ReadMemEx(0xE000E400, 0x0100 Bytes, ..., Flags = 0x02000000) -- CPU_ReadMem(256 bytes @ 0xE000E400) - Data: 00 00 00 00 00 00 00 00 00 00 00 00 00 00 00 00 ...  returns 0x100 (0002ms, 0228ms total)
T2748 000:466 JLINK_ReadMemEx(0xE000ED04, 0x0004 Bytes, ..., Flags = 0x02000000) -- CPU_ReadMem(4 bytes @ 0xE000ED04) - Data: 00 00 00 00  returns 0x04 (0000ms, 0228ms total)
T2748 000:466 JLINK_ReadMemEx(0xE000ED08, 0x0004 Bytes, ..., Flags = 0x02000000) -- CPU_ReadMem(4 bytes @ 0xE000ED08) - Data: 00 00 00 00  returns 0x04 (0000ms, 0228ms total)
T2748 000:466 JLINK_ReadMemEx(0xE000ED0C, 0x0004 Bytes, ..., Flags = 0x02000000) -- CPU_ReadMem(4 bytes @ 0xE000ED0C) - Data: 00 00 05 FA  returns 0x04 (0002ms, 0230ms total)
T2748 000:468 JLINK_ReadMemEx(0xE000ED18, 0x0004 Bytes, ..., Flags = 0x02000000) -- CPU_ReadMem(4 bytes @ 0xE000ED18) - Data: 00 00 00 00  returns 0x04 (0000ms, 0230ms total)
T2748 000:468 JLINK_ReadMemEx(0xE000ED1C, 0x0004 Bytes, ..., Flags = 0x02000000) -- CPU_ReadMem(4 bytes @ 0xE000ED1C) - Data: 00 00 00 00  returns 0x04 (0000ms, 0230ms total)
T2748 000:469 JLINK_ReadMemEx(0xE000ED20, 0x0004 Bytes, ..., Flags = 0x02000000) -- CPU_ReadMem(4 bytes @ 0xE000ED20) - Data: 00 00 00 00  returns 0x04 (0000ms, 0230ms total)
T2748 000:469 JLINK_ReadMemEx(0xE000ED24, 0x0004 Bytes, ..., Flags = 0x02000000) -- CPU_ReadMem(4 bytes @ 0xE000ED24) - Data: 00 00 00 00  returns 0x04 (0000ms, 0230ms total)
T2748 000:469 JLINK_ReadMemEx(0xE000EDFC, 0x0004 Bytes, ..., Flags = 0x02000000) - Data: 00 00 00 01  returns 0x04 (0000ms, 0230ms total)
T2748 000:469 JLINK_ReadMemEx(0xE000E100, 0x0020 Bytes, ..., Flags = 0x02000000) -- CPU_ReadMem(32 bytes @ 0xE000E100) - Data: 00 00 00 00 00 00 00 00 00 00 00 00 00 00 00 00 ...  returns 0x20 (0001ms, 0231ms total)
T2748 000:470 JLINK_ReadMemEx(0xE000E200, 0x0020 Bytes, ..., Flags = 0x02000000) -- CPU_ReadMem(32 bytes @ 0xE000E200) - Data: 00 00 00 00 00 00 00 00 00 00 00 00 00 00 00 00 ...  returns 0x20 (0001ms, 0232ms total)
T2748 000:471 JLINK_ReadMemEx(0xE000E300, 0x0020 Bytes, ..., Flags = 0x02000000) -- CPU_ReadMem(32 bytes @ 0xE000E300) - Data: 00 00 00 00 00 00 00 00 00 00 00 00 00 00 00 00 ...  returns 0x20 (0000ms, 0232ms total)
T2748 000:471 JLINK_ReadMemEx(0xE000E400, 0x0100 Bytes, ..., Flags = 0x02000000) -- CPU_ReadMem(256 bytes @ 0xE000E400) - Data: 00 00 00 00 00 00 00 00 00 00 00 00 00 00 00 00 ...  returns 0x100 (0004ms, 0236ms total)
T2748 000:506 JLINK_ReadMemEx(0x40006000, 0x000C Bytes, ..., Flags = 0x02000004) -- CPU_ReadMem(12 bytes @ 0x40006000) - Data: 00 00 00 00 00 00 00 00 00 00 00 00  returns 0x0C (0000ms, 0236ms total)
T2748 000:506 JLINK_ReadMemEx(0x40006000, 0x0004 Bytes, ..., Flags = 0x02000004) -- CPU_ReadMem(4 bytes @ 0x40006000) - Data: 00 00 00 00  returns 0x04 (0001ms, 0237ms total)
T2748 000:507 JLINK_ReadMemEx(0x40006004, 0x0004 Bytes, ..., Flags = 0x02000004) -- CPU_ReadMem(4 bytes @ 0x40006004) - Data: 00 00 00 00  returns 0x04 (0000ms, 0237ms total)
T2748 000:507 JLINK_ReadMemEx(0x40006008, 0x0004 Bytes, ..., Flags = 0x02000004) -- CPU_ReadMem(4 bytes @ 0x40006008) - Data: 00 00 00 00  returns 0x04 (0001ms, 0238ms total)
T2748 000:508 JLINK_ReadMemEx(0x4000600C, 0x0004 Bytes, ..., Flags = 0x02000004) -- CPU_ReadMem(4 bytes @ 0x4000600C) - Data: 00 00 00 00  returns 0x04 (0000ms, 0238ms total)
T2748 000:508 JLINK_ReadMemEx(0x4000600C, 0x0004 Bytes, ..., Flags = 0x02000004) -- CPU_ReadMem(4 bytes @ 0x4000600C) - Data: 00 00 00 00  returns 0x04 (0001ms, 0239ms total)
T2748 000:509 JLINK_ReadMemEx(0x4000601C, 0x0014 Bytes, ..., Flags = 0x02000004) -- CPU_ReadMem(20 bytes @ 0x4000601C) - Data: 00 00 00 00 00 00 00 00 00 00 00 00 00 00 00 00 ...  returns 0x14 (0000ms, 0239ms total)
T2748 000:509 JLINK_ReadMemEx(0x4000601C, 0x0004 Bytes, ..., Flags = 0x02000004) -- CPU_ReadMem(4 bytes @ 0x4000601C) - Data: 00 00 00 00  returns 0x04 (0001ms, 0240ms total)
T2748 000:510 JLINK_ReadMemEx(0x40006020, 0x0004 Bytes, ..., Flags = 0x02000004) -- CPU_ReadMem(4 bytes @ 0x40006020) - Data: 00 00 00 00  returns 0x04 (0000ms, 0240ms total)
T2748 000:510 JLINK_ReadMemEx(0x40006024, 0x0004 Bytes, ..., Flags = 0x02000004) -- CPU_ReadMem(4 bytes @ 0x40006024) - Data: 00 00 00 00  returns 0x04 (0001ms, 0241ms total)
T2748 000:511 JLINK_ReadMemEx(0x40006028, 0x0004 Bytes, ..., Flags = 0x02000004) -- CPU_ReadMem(4 bytes @ 0x40006028) - Data: 00 00 00 00  returns 0x04 (0000ms, 0241ms total)
T2748 000:511 JLINK_ReadMemEx(0x4000602C, 0x0004 Bytes, ..., Flags = 0x02000004) -- CPU_ReadMem(4 bytes @ 0x4000602C) - Data: 00 00 00 00  returns 0x04 (0001ms, 0242ms total)
T2748 000:512 JLINK_ReadMemEx(0x40006030, 0x0004 Bytes, ..., Flags = 0x02000004) -- CPU_ReadMem(4 bytes @ 0x40006030) - Data: 00 00 00 00  returns 0x04 (0000ms, 0242ms total)
T2748 000:512 JLINK_ReadMemEx(0x40006030, 0x0004 Bytes, ..., Flags = 0x02000004) -- CPU_ReadMem(4 bytes @ 0x40006030) - Data: 00 00 00 00  returns 0x04 (0001ms, 0243ms total)
T2748 000:513 JLINK_ReadMemEx(0x40006040, 0x0014 Bytes, ..., Flags = 0x02000004) -- CPU_ReadMem(20 bytes @ 0x40006040) - Data: 00 00 00 00 00 00 00 00 00 00 00 00 00 00 00 00 ...  returns 0x14 (0000ms, 0243ms total)
T2748 000:513 JLINK_ReadMemEx(0x40006040, 0x0004 Bytes, ..., Flags = 0x02000004) -- CPU_ReadMem(4 bytes @ 0x40006040) - Data: 00 00 00 00  returns 0x04 (0001ms, 0244ms total)
T2748 000:514 JLINK_ReadMemEx(0x40006044, 0x0004 Bytes, ..., Flags = 0x02000004) -- CPU_ReadMem(4 bytes @ 0x40006044) - Data: 00 00 00 00  returns 0x04 (0000ms, 0244ms total)
T2748 000:514 JLINK_ReadMemEx(0x40006048, 0x0004 Bytes, ..., Flags = 0x02000004) -- CPU_ReadMem(4 bytes @ 0x40006048) - Data: 00 00 00 00  returns 0x04 (0001ms, 0245ms total)
T2748 000:515 JLINK_ReadMemEx(0x4000604C, 0x0004 Bytes, ..., Flags = 0x02000004) -- CPU_ReadMem(4 bytes @ 0x4000604C) - Data: 00 00 00 00  returns 0x04 (0000ms, 0245ms total)
T2748 000:515 JLINK_ReadMemEx(0x40006050, 0x0004 Bytes, ..., Flags = 0x02000004) -- CPU_ReadMem(4 bytes @ 0x40006050) - Data: 00 00 00 00  returns 0x04 (0000ms, 0245ms total)
T2748 000:515 JLINK_ReadMemEx(0x40006054, 0x0004 Bytes, ..., Flags = 0x02000004) -- CPU_ReadMem(4 bytes @ 0x40006054) - Data: 00 00 00 00  returns 0x04 (0001ms, 0246ms total)
T2748 000:516 JLINK_ReadMemEx(0x40006054, 0x0004 Bytes, ..., Flags = 0x02000004) -- CPU_ReadMem(4 bytes @ 0x40006054) - Data: 00 00 00 00  returns 0x04 (0001ms, 0247ms total)
T2748 000:517 JLINK_ReadMemEx(0x40006064, 0x0014 Bytes, ..., Flags = 0x02000004) -- CPU_ReadMem(20 bytes @ 0x40006064) - Data: 00 00 00 00 00 00 00 00 00 00 00 00 00 00 00 00 ...  returns 0x14 (0000ms, 0247ms total)
T2748 000:517 JLINK_ReadMemEx(0x40006064, 0x0004 Bytes, ..., Flags = 0x02000004) -- CPU_ReadMem(4 bytes @ 0x40006064) - Data: 00 00 00 00  returns 0x04 (0000ms, 0247ms total)
T2748 000:517 JLINK_ReadMemEx(0x40006068, 0x0004 Bytes, ..., Flags = 0x02000004) -- CPU_ReadMem(4 bytes @ 0x40006068) - Data: 00 00 00 00  returns 0x04 (0001ms, 0248ms total)
T2748 000:518 JLINK_ReadMemEx(0x4000606C, 0x0004 Bytes, ..., Flags = 0x02000004) -- CPU_ReadMem(4 bytes @ 0x4000606C) - Data: 00 00 00 00  returns 0x04 (0000ms, 0248ms total)
T2748 000:518 JLINK_ReadMemEx(0x40006070, 0x0004 Bytes, ..., Flags = 0x02000004) -- CPU_ReadMem(4 bytes @ 0x40006070) - Data: 00 00 00 00  returns 0x04 (0001ms, 0249ms total)
T2748 000:519 JLINK_ReadMemEx(0x40006074, 0x0004 Bytes, ..., Flags = 0x02000004) -- CPU_ReadMem(4 bytes @ 0x40006074) - Data: 00 00 00 00  returns 0x04 (0000ms, 0249ms total)
T2748 000:519 JLINK_ReadMemEx(0x40006078, 0x0004 Bytes, ..., Flags = 0x02000004) -- CPU_ReadMem(4 bytes @ 0x40006078) - Data: 00 00 00 00  returns 0x04 (0001ms, 0250ms total)
T2748 000:520 JLINK_ReadMemEx(0x40006078, 0x0004 Bytes, ..., Flags = 0x02000004) -- CPU_ReadMem(4 bytes @ 0x40006078) - Data: 00 00 00 00  returns 0x04 (0000ms, 0250ms total)
T2748 000:520 JLINK_ReadMemEx(0x40006088, 0x0014 Bytes, ..., Flags = 0x02000004) -- CPU_ReadMem(20 bytes @ 0x40006088) - Data: 00 00 00 00 00 00 00 00 00 00 00 00 00 00 00 00 ...  returns 0x14 (0001ms, 0251ms total)
T2748 000:521 JLINK_ReadMemEx(0x40006088, 0x0004 Bytes, ..., Flags = 0x02000004) -- CPU_ReadMem(4 bytes @ 0x40006088) - Data: 00 00 00 00  returns 0x04 (0000ms, 0251ms total)
T2748 000:521 JLINK_ReadMemEx(0x4000608C, 0x0004 Bytes, ..., Flags = 0x02000004) -- CPU_ReadMem(4 bytes @ 0x4000608C) - Data: 00 00 00 00  returns 0x04 (0001ms, 0252ms total)
T2748 000:522 JLINK_ReadMemEx(0x40006090, 0x0004 Bytes, ..., Flags = 0x02000004) -- CPU_ReadMem(4 bytes @ 0x40006090) - Data: 00 00 00 00  returns 0x04 (0000ms, 0252ms total)
T2748 000:522 JLINK_ReadMemEx(0x40006094, 0x0004 Bytes, ..., Flags = 0x02000004) -- CPU_ReadMem(4 bytes @ 0x40006094) - Data: 00 00 00 00  returns 0x04 (0001ms, 0253ms total)
T2748 000:523 JLINK_ReadMemEx(0x40006098, 0x0004 Bytes, ..., Flags = 0x02000004) -- CPU_ReadMem(4 bytes @ 0x40006098) - Data: 00 00 00 00  returns 0x04 (0000ms, 0253ms total)
T2748 000:523 JLINK_ReadMemEx(0x4000609C, 0x0004 Bytes, ..., Flags = 0x02000004) -- CPU_ReadMem(4 bytes @ 0x4000609C) - Data: 00 00 00 00  returns 0x04 (0001ms, 0254ms total)
T2748 000:524 JLINK_ReadMemEx(0x4000609C, 0x0004 Bytes, ..., Flags = 0x02000004) -- CPU_ReadMem(4 bytes @ 0x4000609C) - Data: 00 00 00 00  returns 0x04 (0000ms, 0254ms total)
T2748 000:524 JLINK_ReadMemEx(0x400060AC, 0x0014 Bytes, ..., Flags = 0x02000004) -- CPU_ReadMem(20 bytes @ 0x400060AC) - Data: 00 00 00 00 00 00 00 00 00 00 00 00 00 00 00 00 ...  returns 0x14 (0001ms, 0255ms total)
T2748 000:525 JLINK_ReadMemEx(0x400060AC, 0x0004 Bytes, ..., Flags = 0x02000004) -- CPU_ReadMem(4 bytes @ 0x400060AC) - Data: 00 00 00 00  returns 0x04 (0000ms, 0255ms total)
T2748 000:525 JLINK_ReadMemEx(0x400060B0, 0x0004 Bytes, ..., Flags = 0x02000004) -- CPU_ReadMem(4 bytes @ 0x400060B0) - Data: 00 00 00 00  returns 0x04 (0001ms, 0256ms total)
T2748 000:526 JLINK_ReadMemEx(0x400060B4, 0x0004 Bytes, ..., Flags = 0x02000004) -- CPU_ReadMem(4 bytes @ 0x400060B4) - Data: 00 00 00 00  returns 0x04 (0000ms, 0256ms total)
T2748 000:526 JLINK_ReadMemEx(0x400060B8, 0x0004 Bytes, ..., Flags = 0x02000004) -- CPU_ReadMem(4 bytes @ 0x400060B8) - Data: 00 00 00 00  returns 0x04 (0000ms, 0256ms total)
T2748 000:526 JLINK_ReadMemEx(0x400060BC, 0x0004 Bytes, ..., Flags = 0x02000004) -- CPU_ReadMem(4 bytes @ 0x400060BC) - Data: 00 00 00 00  returns 0x04 (0000ms, 0256ms total)
T2748 000:526 JLINK_ReadMemEx(0x400060C0, 0x0004 Bytes, ..., Flags = 0x02000004) -- CPU_ReadMem(4 bytes @ 0x400060C0) - Data: 00 00 00 00  returns 0x04 (0001ms, 0257ms total)
T2748 000:527 JLINK_ReadMemEx(0x400060C0, 0x0004 Bytes, ..., Flags = 0x02000004) -- CPU_ReadMem(4 bytes @ 0x400060C0) - Data: 00 00 00 00  returns 0x04 (0000ms, 0257ms total)
T2748 000:527 JLINK_ReadMemEx(0x400060D0, 0x0004 Bytes, ..., Flags = 0x02000004) -- CPU_ReadMem(4 bytes @ 0x400060D0) - Data: 00 00 00 00  returns 0x04 (0001ms, 0258ms total)
T2748 000:528 JLINK_ReadMemEx(0x400060D0, 0x0004 Bytes, ..., Flags = 0x02000004) -- CPU_ReadMem(4 bytes @ 0x400060D0) - Data: 00 00 00 00  returns 0x04 (0000ms, 0258ms total)
T2748 000:528 JLINK_ReadMemEx(0x400060D4, 0x0004 Bytes, ..., Flags = 0x02000004) -- CPU_ReadMem(4 bytes @ 0x400060D4) - Data: 00 00 00 00  returns 0x04 (0001ms, 0259ms total)
T2748 000:529 JLINK_ReadMemEx(0x400060D4, 0x0004 Bytes, ..., Flags = 0x02000004) -- CPU_ReadMem(4 bytes @ 0x400060D4) - Data: 00 00 00 00  returns 0x04 (0001ms, 0260ms total)
T2748 000:530 JLINK_ReadMemEx(0x40006100, 0x0014 Bytes, ..., Flags = 0x02000004) -- CPU_ReadMem(20 bytes @ 0x40006100) - Data: 00 00 00 00 00 00 00 00 00 00 00 00 00 00 00 00 ...  returns 0x14 (0000ms, 0260ms total)
T2748 000:530 JLINK_ReadMemEx(0x40006100, 0x0004 Bytes, ..., Flags = 0x02000004) -- CPU_ReadMem(4 bytes @ 0x40006100) - Data: 00 00 00 00  returns 0x04 (0001ms, 0261ms total)
T2748 000:531 JLINK_ReadMemEx(0x40006104, 0x0004 Bytes, ..., Flags = 0x02000004) -- CPU_ReadMem(4 bytes @ 0x40006104) - Data: 00 00 00 00  returns 0x04 (0000ms, 0261ms total)
T2748 000:531 JLINK_ReadMemEx(0x40006108, 0x0004 Bytes, ..., Flags = 0x02000004) -- CPU_ReadMem(4 bytes @ 0x40006108) - Data: 00 00 00 00  returns 0x04 (0001ms, 0262ms total)
T2748 000:532 JLINK_ReadMemEx(0x4000610C, 0x0004 Bytes, ..., Flags = 0x02000004) -- CPU_ReadMem(4 bytes @ 0x4000610C) - Data: 00 00 00 00  returns 0x04 (0000ms, 0262ms total)
T2748 000:532 JLINK_ReadMemEx(0x40006110, 0x0004 Bytes, ..., Flags = 0x02000004) -- CPU_ReadMem(4 bytes @ 0x40006110) - Data: 00 00 00 00  returns 0x04 (0001ms, 0263ms total)
T2748 000:533 JLINK_ReadMemEx(0x40006114, 0x0004 Bytes, ..., Flags = 0x02000004) -- CPU_ReadMem(4 bytes @ 0x40006114) - Data: 00 00 00 00  returns 0x04 (0000ms, 0263ms total)
T2748 000:533 JLINK_ReadMemEx(0x40006114, 0x0004 Bytes, ..., Flags = 0x02000004) -- CPU_ReadMem(4 bytes @ 0x40006114) - Data: 00 00 00 00  returns 0x04 (0000ms, 0263ms total)
T2748 000:533 JLINK_ReadMemEx(0x40006120, 0x000C Bytes, ..., Flags = 0x02000004) -- CPU_ReadMem(12 bytes @ 0x40006120) - Data: 00 00 00 00 00 00 00 00 00 00 00 00  returns 0x0C (0001ms, 0264ms total)
T2748 000:534 JLINK_ReadMemEx(0x40006120, 0x0004 Bytes, ..., Flags = 0x02000004) -- CPU_ReadMem(4 bytes @ 0x40006120) - Data: 00 00 00 00  returns 0x04 (0000ms, 0264ms total)
T2748 000:534 JLINK_ReadMemEx(0x40006124, 0x0004 Bytes, ..., Flags = 0x02000004) -- CPU_ReadMem(4 bytes @ 0x40006124) - Data: 00 00 00 00  returns 0x04 (0001ms, 0265ms total)
T2748 000:535 JLINK_ReadMemEx(0x40006128, 0x0004 Bytes, ..., Flags = 0x02000004) -- CPU_ReadMem(4 bytes @ 0x40006128) - Data: 00 00 00 00  returns 0x04 (0000ms, 0265ms total)
T2748 000:535 JLINK_ReadMemEx(0x4000612C, 0x0004 Bytes, ..., Flags = 0x02000004) -- CPU_ReadMem(4 bytes @ 0x4000612C) - Data: 00 00 00 00  returns 0x04 (0001ms, 0266ms total)
T2748 000:536 JLINK_ReadMemEx(0x4000612C, 0x0004 Bytes, ..., Flags = 0x02000004) -- CPU_ReadMem(4 bytes @ 0x4000612C) - Data: 00 00 00 00  returns 0x04 (0000ms, 0266ms total)
T2748 000:536 JLINK_ReadMemEx(0x40006134, 0x0008 Bytes, ..., Flags = 0x02000004) -- CPU_ReadMem(8 bytes @ 0x40006134) - Data: 00 00 00 00 00 00 00 00  returns 0x08 (0001ms, 0267ms total)
T2748 000:537 JLINK_ReadMemEx(0x40006134, 0x0004 Bytes, ..., Flags = 0x02000004) -- CPU_ReadMem(4 bytes @ 0x40006134) - Data: 00 00 00 00  returns 0x04 (0000ms, 0267ms total)
T2748 000:537 JLINK_ReadMemEx(0x40006138, 0x0004 Bytes, ..., Flags = 0x02000004) -- CPU_ReadMem(4 bytes @ 0x40006138) - Data: 00 00 00 00  returns 0x04 (0000ms, 0267ms total)
T2748 000:537 JLINK_ReadMemEx(0x4000613C, 0x0004 Bytes, ..., Flags = 0x02000004) -- CPU_ReadMem(4 bytes @ 0x4000613C) - Data: 00 00 00 00  returns 0x04 (0001ms, 0268ms total)
T2748 000:538 JLINK_ReadMemEx(0x4000613C, 0x0004 Bytes, ..., Flags = 0x02000004) -- CPU_ReadMem(4 bytes @ 0x4000613C) - Data: 00 00 00 00  returns 0x04 (0001ms, 0269ms total)
T2748 001:533 JLINK_ReadReg(R0)  returns 0x00000000 (0001ms, 0270ms total)
T2748 001:534 JLINK_ReadReg(R1)  returns 0x00000000 (0000ms, 0270ms total)
T2748 001:534 JLINK_ReadReg(R2)  returns 0x00000234 (0000ms, 0270ms total)
T2748 001:534 JLINK_ReadReg(R3)  returns 0x04C11DB7 (0000ms, 0270ms total)
T2748 001:534 JLINK_ReadReg(R4)  returns 0x00000000 (0000ms, 0270ms total)
T2748 001:534 JLINK_ReadReg(R5)  returns 0x00000000 (0000ms, 0270ms total)
T2748 001:534 JLINK_ReadReg(R6)  returns 0x00000000 (0000ms, 0270ms total)
T2748 001:534 JLINK_ReadReg(R7)  returns 0x00000000 (0000ms, 0270ms total)
T2748 001:534 JLINK_ReadReg(R8)  returns 0x00000000 (0000ms, 0270ms total)
T2748 001:534 JLINK_ReadReg(R9)  returns 0x20000228 (0000ms, 0270ms total)
T2748 001:534 JLINK_ReadReg(R10)  returns 0x00000000 (0000ms, 0270ms total)
T2748 001:534 JLINK_ReadReg(R11)  returns 0x00000000 (0000ms, 0270ms total)
T2748 001:534 JLINK_ReadReg(R12)  returns 0x00000000 (0000ms, 0270ms total)
T2748 001:534 JLINK_ReadReg(R13 (SP))  returns 0x20000400 (0000ms, 0270ms total)
T2748 001:534 JLINK_ReadReg(R14)  returns 0xFFFFFFFF (0000ms, 0270ms total)
T2748 001:534 JLINK_ReadReg(R15 (PC))  returns 0x00000100 (0000ms, 0270ms total)
T2748 001:534 JLINK_ReadReg(XPSR)  returns 0x01000000 (0000ms, 0270ms total)
T2748 001:534 JLINK_ReadReg(MSP)  returns 0x20000400 (0000ms, 0270ms total)
T2748 001:534 JLINK_ReadReg(PSP)  returns 0x20008000 (0000ms, 0270ms total)
T2748 001:534 JLINK_ReadReg(CFBP)  returns 0x00000000 (0000ms, 0270ms total)
T2748 001:534 JLINK_ReadMemEx(0xE00FF000, 0x0400 Bytes, ..., Flags = 0x02000000) -- CPU_ReadMem(1024 bytes @ 0xE00FF000) - Data: 03 F0 F0 FF 03 20 F0 FF 03 30 F0 FF 03 10 F0 FF ...  returns 0x400 (0010ms, 0280ms total)
T2748 001:544 JLINK_ReadMemEx(0xE00FF400, 0x0140 Bytes, ..., Flags = 0x02000000) -- CPU_ReadMem(320 bytes @ 0xE00FF400) - Data: 00 00 00 00 00 00 00 00 00 00 00 00 00 00 00 00 ...  returns 0x140 (0003ms, 0283ms total)
T2748 001:551 JLINK_ReadMemEx(0xE00FF000, 0x0400 Bytes, ..., Flags = 0x02000000) -- CPU_ReadMem(1024 bytes @ 0xE00FF000) - Data: 03 F0 F0 FF 03 20 F0 FF 03 30 F0 FF 03 10 F0 FF ...  returns 0x400 (0010ms, 0293ms total)
T2748 001:561 JLINK_ReadMemEx(0xE00FF400, 0x0140 Bytes, ..., Flags = 0x02000000) -- CPU_ReadMem(320 bytes @ 0xE00FF400) - Data: 00 00 00 00 00 00 00 00 00 00 00 00 00 00 00 00 ...  returns 0x140 (0003ms, 0296ms total)
T2748 001:565 JLINK_ReadMemEx(0xE00FF000, 0x0400 Bytes, ..., Flags = 0x02000000) -- CPU_ReadMem(1024 bytes @ 0xE00FF000) - Data: 03 F0 F0 FF 03 20 F0 FF 03 30 F0 FF 03 10 F0 FF ...  returns 0x400 (0009ms, 0305ms total)
T2748 001:574 JLINK_ReadMemEx(0xE00FF400, 0x0140 Bytes, ..., Flags = 0x02000000) -- CPU_ReadMem(320 bytes @ 0xE00FF400) - Data: 00 00 00 00 00 00 00 00 00 00 00 00 00 00 00 00 ...  returns 0x140 (0004ms, 0309ms total)
T2748 001:588 JLINK_ReadMemEx(0xE00FF000, 0x0400 Bytes, ..., Flags = 0x02000000) -- CPU_ReadMem(1024 bytes @ 0xE00FF000) - Data: 03 F0 F0 FF 03 20 F0 FF 03 30 F0 FF 03 10 F0 FF ...  returns 0x400 (0009ms, 0318ms total)
T2748 001:597 JLINK_ReadMemEx(0xE00FF400, 0x0180 Bytes, ..., Flags = 0x02000000) -- CPU_ReadMem(384 bytes @ 0xE00FF400) - Data: 00 00 00 00 00 00 00 00 00 00 00 00 00 00 00 00 ...  returns 0x180 (0004ms, 0322ms total)
T2748 001:601 JLINK_ReadMemEx(0xE00FF000, 0x0400 Bytes, ..., Flags = 0x02000000) -- CPU_ReadMem(1024 bytes @ 0xE00FF000) - Data: 03 F0 F0 FF 03 20 F0 FF 03 30 F0 FF 03 10 F0 FF ...  returns 0x400 (0010ms, 0332ms total)
T2748 001:611 JLINK_ReadMemEx(0xE00FF400, 0x0180 Bytes, ..., Flags = 0x02000000) -- CPU_ReadMem(384 bytes @ 0xE00FF400) - Data: 00 00 00 00 00 00 00 00 00 00 00 00 00 00 00 00 ...  returns 0x180 (0004ms, 0336ms total)
T2748 002:321 JLINK_ReadMemEx(0x00000226, 0x0002 Bytes, ..., Flags = 0x02000000) -- CPU_ReadMem(64 bytes @ 0x00000200) -- Updating C cache (64 bytes @ 0x00000200) -- Read from C cache (2 bytes @ 0x00000226) - Data: 07 BD  returns 0x02 (0001ms, 0337ms total)
T2748 002:322 JLINK_ReadMemEx(0x00000228, 0x003C Bytes, ..., Flags = 0x02000000) -- CPU_ReadMem(64 bytes @ 0x00000240) -- Updating C cache (64 bytes @ 0x00000240) -- Read from C cache (60 bytes @ 0x00000228) - Data: 44 80 0C 40 94 60 00 40 9C 60 00 40 FF FF FF FF ...  returns 0x3C (0001ms, 0338ms total)
T2748 002:323 JLINK_ReadMemEx(0x00000264, 0x003C Bytes, ..., Flags = 0x02000000) -- CPU_ReadMem(64 bytes @ 0x00000280) -- Updating C cache (64 bytes @ 0x00000280) -- Read from C cache (60 bytes @ 0x00000264) - Data: FF FF FF FF FF FF FF FF FF FF FF FF FF FF FF FF ...  returns 0x3C (0001ms, 0339ms total)
T2748 002:324 JLINK_ReadMemEx(0x000002A0, 0x003C Bytes, ..., Flags = 0x02000000) -- CPU_ReadMem(64 bytes @ 0x000002C0) -- Updating C cache (64 bytes @ 0x000002C0) -- Read from C cache (60 bytes @ 0x000002A0) - Data: FF FF FF FF FF FF FF FF FF FF FF FF FF FF FF FF ...  returns 0x3C (0002ms, 0341ms total)
T2748 002:326 JLINK_ReadMemEx(0x000002DC, 0x003C Bytes, ..., Flags = 0x02000000) -- CPU_ReadMem(64 bytes @ 0x00000300) -- Updating C cache (64 bytes @ 0x00000300) -- Read from C cache (60 bytes @ 0x000002DC) - Data: FF FF FF FF FF FF FF FF FF FF FF FF FF FF FF FF ...  returns 0x3C (0001ms, 0342ms total)
T2748 002:628 JLINK_ReadMemU32(0xE0001004, 0x0001 Items, ...) - Data: 00 00 00 00  returns 0x01 (0000ms, 0342ms total)
T2748 002:628 JLINK_ReadMemEx(0xE00FF000, 0x0400 Bytes, ..., Flags = 0x02000000) -- CPU_ReadMem(1024 bytes @ 0xE00FF000) - Data: 03 F0 F0 FF 03 20 F0 FF 03 30 F0 FF 03 10 F0 FF ...  returns 0x400 (0010ms, 0352ms total)
T2748 002:638 JLINK_ReadMemEx(0xE00FF400, 0x0180 Bytes, ..., Flags = 0x02000000) -- CPU_ReadMem(384 bytes @ 0xE00FF400) - Data: 00 00 00 00 00 00 00 00 00 00 00 00 00 00 00 00 ...  returns 0x180 (0004ms, 0356ms total)
T2748 002:644 JLINK_ReadMemEx(0xE000ED04, 0x0004 Bytes, ..., Flags = 0x02000000) -- CPU_ReadMem(4 bytes @ 0xE000ED04) - Data: 00 00 00 00  returns 0x04 (0000ms, 0356ms total)
T2748 002:644 JLINK_ReadMemEx(0xE000ED08, 0x0004 Bytes, ..., Flags = 0x02000000) -- CPU_ReadMem(4 bytes @ 0xE000ED08) - Data: 00 00 00 00  returns 0x04 (0001ms, 0357ms total)
T2748 002:645 JLINK_ReadMemEx(0xE000ED0C, 0x0004 Bytes, ..., Flags = 0x02000000) -- CPU_ReadMem(4 bytes @ 0xE000ED0C) - Data: 00 00 05 FA  returns 0x04 (0000ms, 0357ms total)
T2748 002:645 JLINK_ReadMemEx(0xE000ED18, 0x0004 Bytes, ..., Flags = 0x02000000) -- CPU_ReadMem(4 bytes @ 0xE000ED18) - Data: 00 00 00 00  returns 0x04 (0001ms, 0358ms total)
T2748 002:646 JLINK_ReadMemEx(0xE000ED1C, 0x0004 Bytes, ..., Flags = 0x02000000) -- CPU_ReadMem(4 bytes @ 0xE000ED1C) - Data: 00 00 00 00  returns 0x04 (0000ms, 0358ms total)
T2748 002:646 JLINK_ReadMemEx(0xE000ED20, 0x0004 Bytes, ..., Flags = 0x02000000) -- CPU_ReadMem(4 bytes @ 0xE000ED20) - Data: 00 00 00 00  returns 0x04 (0000ms, 0358ms total)
T2748 002:646 JLINK_ReadMemEx(0xE000ED24, 0x0004 Bytes, ..., Flags = 0x02000000) -- CPU_ReadMem(4 bytes @ 0xE000ED24) - Data: 00 00 00 00  returns 0x04 (0001ms, 0359ms total)
T2748 002:647 JLINK_ReadMemEx(0xE000EDFC, 0x0004 Bytes, ..., Flags = 0x02000000) - Data: 00 00 00 01  returns 0x04 (0000ms, 0359ms total)
T2748 002:647 JLINK_ReadMemEx(0xE000E100, 0x0020 Bytes, ..., Flags = 0x02000000) -- CPU_ReadMem(32 bytes @ 0xE000E100) - Data: 00 00 00 00 00 00 00 00 00 00 00 00 00 00 00 00 ...  returns 0x20 (0000ms, 0359ms total)
T2748 002:647 JLINK_ReadMemEx(0xE000E200, 0x0020 Bytes, ..., Flags = 0x02000000) -- CPU_ReadMem(32 bytes @ 0xE000E200) - Data: 00 00 00 00 00 00 00 00 00 00 00 00 00 00 00 00 ...  returns 0x20 (0001ms, 0360ms total)
T2748 002:648 JLINK_ReadMemEx(0xE000E300, 0x0020 Bytes, ..., Flags = 0x02000000) -- CPU_ReadMem(32 bytes @ 0xE000E300) - Data: 00 00 00 00 00 00 00 00 00 00 00 00 00 00 00 00 ...  returns 0x20 (0001ms, 0361ms total)
T2748 002:649 JLINK_ReadMemEx(0xE000E400, 0x0100 Bytes, ..., Flags = 0x02000000) -- CPU_ReadMem(256 bytes @ 0xE000E400) - Data: 00 00 00 00 00 00 00 00 00 00 00 00 00 00 00 00 ...  returns 0x100 (0002ms, 0363ms total)
T2748 002:651 JLINK_ReadMemEx(0xE000ED10, 0x0004 Bytes, ..., Flags = 0x02000000) -- CPU_ReadMem(4 bytes @ 0xE000ED10) - Data: 00 00 00 00  returns 0x04 (0001ms, 0364ms total)
T2748 002:652 JLINK_ReadMemEx(0xE000ED14, 0x0004 Bytes, ..., Flags = 0x02000000) -- CPU_ReadMem(4 bytes @ 0xE000ED14) - Data: 00 02 00 00  returns 0x04 (0000ms, 0364ms total)
T2748 002:652 JLINK_ReadMemEx(0xE000ED28, 0x0004 Bytes, ..., Flags = 0x02000000) -- CPU_ReadMem(4 bytes @ 0xE000ED28) - Data: 00 00 00 00  returns 0x04 (0001ms, 0365ms total)
T2748 002:653 JLINK_ReadMemEx(0xE000ED2C, 0x0004 Bytes, ..., Flags = 0x02000000) -- CPU_ReadMem(4 bytes @ 0xE000ED2C) - Data: 00 00 00 00  returns 0x04 (0000ms, 0365ms total)
T2748 002:653 JLINK_ReadMemEx(0xE000ED30, 0x0004 Bytes, ..., Flags = 0x02000000) -- CPU_ReadMem(4 bytes @ 0xE000ED30) - Data: 09 00 00 00  returns 0x04 (0001ms, 0366ms total)
T2748 002:654 JLINK_ReadMemEx(0xE000ED34, 0x0004 Bytes, ..., Flags = 0x02000000) -- CPU_ReadMem(4 bytes @ 0xE000ED34) - Data: F8 ED 00 E0  returns 0x04 (0000ms, 0366ms total)
T2748 002:654 JLINK_ReadMemEx(0xE000ED38, 0x0004 Bytes, ..., Flags = 0x02000000) -- CPU_ReadMem(4 bytes @ 0xE000ED38) - Data: F8 ED 00 E0  returns 0x04 (0000ms, 0366ms total)
T2748 002:654 JLINK_ReadMemEx(0xE000ED3C, 0x0004 Bytes, ..., Flags = 0x02000000) -- CPU_ReadMem(4 bytes @ 0xE000ED3C) - Data: 00 00 00 00  returns 0x04 (0001ms, 0367ms total)
T2748 002:655 JLINK_ReadMemEx(0x40006000, 0x000C Bytes, ..., Flags = 0x02000004) -- CPU_ReadMem(12 bytes @ 0x40006000) - Data: 00 00 00 00 00 00 00 00 00 00 00 00  returns 0x0C (0000ms, 0367ms total)
T2748 002:655 JLINK_ReadMemEx(0x40006000, 0x0004 Bytes, ..., Flags = 0x02000004) -- CPU_ReadMem(4 bytes @ 0x40006000) - Data: 00 00 00 00  returns 0x04 (0001ms, 0368ms total)
T2748 002:656 JLINK_ReadMemEx(0x40006004, 0x0004 Bytes, ..., Flags = 0x02000004) -- CPU_ReadMem(4 bytes @ 0x40006004) - Data: 00 00 00 00  returns 0x04 (0000ms, 0368ms total)
T2748 002:656 JLINK_ReadMemEx(0x40006008, 0x0004 Bytes, ..., Flags = 0x02000004) -- CPU_ReadMem(4 bytes @ 0x40006008) - Data: 00 00 00 00  returns 0x04 (0001ms, 0369ms total)
T2748 002:657 JLINK_ReadMemEx(0x4000600C, 0x0004 Bytes, ..., Flags = 0x02000004) -- CPU_ReadMem(4 bytes @ 0x4000600C) - Data: 00 00 00 00  returns 0x04 (0000ms, 0369ms total)
T2748 002:657 JLINK_ReadMemEx(0x4000600C, 0x0004 Bytes, ..., Flags = 0x02000004) -- CPU_ReadMem(4 bytes @ 0x4000600C) - Data: 00 00 00 00  returns 0x04 (0000ms, 0369ms total)
T2748 002:657 JLINK_ReadMemEx(0x4000601C, 0x0014 Bytes, ..., Flags = 0x02000004) -- CPU_ReadMem(20 bytes @ 0x4000601C) - Data: 00 00 00 00 00 00 00 00 00 00 00 00 00 00 00 00 ...  returns 0x14 (0001ms, 0370ms total)
T2748 002:658 JLINK_ReadMemEx(0x4000601C, 0x0004 Bytes, ..., Flags = 0x02000004) -- CPU_ReadMem(4 bytes @ 0x4000601C) - Data: 00 00 00 00  returns 0x04 (0000ms, 0370ms total)
T2748 002:658 JLINK_ReadMemEx(0x40006020, 0x0004 Bytes, ..., Flags = 0x02000004) -- CPU_ReadMem(4 bytes @ 0x40006020) - Data: 00 00 00 00  returns 0x04 (0001ms, 0371ms total)
T2748 002:659 JLINK_ReadMemEx(0x40006024, 0x0004 Bytes, ..., Flags = 0x02000004) -- CPU_ReadMem(4 bytes @ 0x40006024) - Data: 00 00 00 00  returns 0x04 (0000ms, 0371ms total)
T2748 002:659 JLINK_ReadMemEx(0x40006028, 0x0004 Bytes, ..., Flags = 0x02000004) -- CPU_ReadMem(4 bytes @ 0x40006028) - Data: 00 00 00 00  returns 0x04 (0001ms, 0372ms total)
T2748 002:660 JLINK_ReadMemEx(0x4000602C, 0x0004 Bytes, ..., Flags = 0x02000004) -- CPU_ReadMem(4 bytes @ 0x4000602C) - Data: 00 00 00 00  returns 0x04 (0000ms, 0372ms total)
T2748 002:660 JLINK_ReadMemEx(0x40006030, 0x0004 Bytes, ..., Flags = 0x02000004) -- CPU_ReadMem(4 bytes @ 0x40006030) - Data: 00 00 00 00  returns 0x04 (0000ms, 0372ms total)
T2748 002:660 JLINK_ReadMemEx(0x40006030, 0x0004 Bytes, ..., Flags = 0x02000004) -- CPU_ReadMem(4 bytes @ 0x40006030) - Data: 00 00 00 00  returns 0x04 (0001ms, 0373ms total)
T2748 002:661 JLINK_ReadMemEx(0x40006040, 0x0014 Bytes, ..., Flags = 0x02000004) -- CPU_ReadMem(20 bytes @ 0x40006040) - Data: 00 00 00 00 00 00 00 00 00 00 00 00 00 00 00 00 ...  returns 0x14 (0000ms, 0373ms total)
T2748 002:661 JLINK_ReadMemEx(0x40006040, 0x0004 Bytes, ..., Flags = 0x02000004) -- CPU_ReadMem(4 bytes @ 0x40006040) - Data: 00 00 00 00  returns 0x04 (0001ms, 0374ms total)
T2748 002:662 JLINK_ReadMemEx(0x40006044, 0x0004 Bytes, ..., Flags = 0x02000004) -- CPU_ReadMem(4 bytes @ 0x40006044) - Data: 00 00 00 00  returns 0x04 (0000ms, 0374ms total)
T2748 002:662 JLINK_ReadMemEx(0x40006048, 0x0004 Bytes, ..., Flags = 0x02000004) -- CPU_ReadMem(4 bytes @ 0x40006048) - Data: 00 00 00 00  returns 0x04 (0001ms, 0375ms total)
T2748 002:663 JLINK_ReadMemEx(0x4000604C, 0x0004 Bytes, ..., Flags = 0x02000004) -- CPU_ReadMem(4 bytes @ 0x4000604C) - Data: 00 00 00 00  returns 0x04 (0000ms, 0375ms total)
T2748 002:663 JLINK_ReadMemEx(0x40006050, 0x0004 Bytes, ..., Flags = 0x02000004) -- CPU_ReadMem(4 bytes @ 0x40006050) - Data: 00 00 00 00  returns 0x04 (0001ms, 0376ms total)
T2748 002:664 JLINK_ReadMemEx(0x40006054, 0x0004 Bytes, ..., Flags = 0x02000004) -- CPU_ReadMem(4 bytes @ 0x40006054) - Data: 00 00 00 00  returns 0x04 (0000ms, 0376ms total)
T2748 002:664 JLINK_ReadMemEx(0x40006054, 0x0004 Bytes, ..., Flags = 0x02000004) -- CPU_ReadMem(4 bytes @ 0x40006054) - Data: 00 00 00 00  returns 0x04 (0000ms, 0376ms total)
T2748 002:664 JLINK_ReadMemEx(0x40006064, 0x0014 Bytes, ..., Flags = 0x02000004) -- CPU_ReadMem(20 bytes @ 0x40006064) - Data: 00 00 00 00 00 00 00 00 00 00 00 00 00 00 00 00 ...  returns 0x14 (0001ms, 0377ms total)
T2748 002:665 JLINK_ReadMemEx(0x40006064, 0x0004 Bytes, ..., Flags = 0x02000004) -- CPU_ReadMem(4 bytes @ 0x40006064) - Data: 00 00 00 00  returns 0x04 (0000ms, 0377ms total)
T2748 002:665 JLINK_ReadMemEx(0x40006068, 0x0004 Bytes, ..., Flags = 0x02000004) -- CPU_ReadMem(4 bytes @ 0x40006068) - Data: 00 00 00 00  returns 0x04 (0001ms, 0378ms total)
T2748 002:666 JLINK_ReadMemEx(0x4000606C, 0x0004 Bytes, ..., Flags = 0x02000004) -- CPU_ReadMem(4 bytes @ 0x4000606C) - Data: 00 00 00 00  returns 0x04 (0000ms, 0378ms total)
T2748 002:666 JLINK_ReadMemEx(0x40006070, 0x0004 Bytes, ..., Flags = 0x02000004) -- CPU_ReadMem(4 bytes @ 0x40006070) - Data: 00 00 00 00  returns 0x04 (0001ms, 0379ms total)
T2748 002:667 JLINK_ReadMemEx(0x40006074, 0x0004 Bytes, ..., Flags = 0x02000004) -- CPU_ReadMem(4 bytes @ 0x40006074) - Data: 00 00 00 00  returns 0x04 (0000ms, 0379ms total)
T2748 002:667 JLINK_ReadMemEx(0x40006078, 0x0004 Bytes, ..., Flags = 0x02000004) -- CPU_ReadMem(4 bytes @ 0x40006078) - Data: 00 00 00 00  returns 0x04 (0000ms, 0379ms total)
T2748 002:667 JLINK_ReadMemEx(0x40006078, 0x0004 Bytes, ..., Flags = 0x02000004) -- CPU_ReadMem(4 bytes @ 0x40006078) - Data: 00 00 00 00  returns 0x04 (0001ms, 0380ms total)
T2748 002:668 JLINK_ReadMemEx(0x40006088, 0x0014 Bytes, ..., Flags = 0x02000004) -- CPU_ReadMem(20 bytes @ 0x40006088) - Data: 00 00 00 00 00 00 00 00 00 00 00 00 00 00 00 00 ...  returns 0x14 (0000ms, 0380ms total)
T2748 002:668 JLINK_ReadMemEx(0x40006088, 0x0004 Bytes, ..., Flags = 0x02000004) -- CPU_ReadMem(4 bytes @ 0x40006088) - Data: 00 00 00 00  returns 0x04 (0001ms, 0381ms total)
T2748 002:669 JLINK_ReadMemEx(0x4000608C, 0x0004 Bytes, ..., Flags = 0x02000004) -- CPU_ReadMem(4 bytes @ 0x4000608C) - Data: 00 00 00 00  returns 0x04 (0000ms, 0381ms total)
T2748 002:669 JLINK_ReadMemEx(0x40006090, 0x0004 Bytes, ..., Flags = 0x02000004) -- CPU_ReadMem(4 bytes @ 0x40006090) - Data: 00 00 00 00  returns 0x04 (0001ms, 0382ms total)
T2748 002:670 JLINK_ReadMemEx(0x40006094, 0x0004 Bytes, ..., Flags = 0x02000004) -- CPU_ReadMem(4 bytes @ 0x40006094) - Data: 00 00 00 00  returns 0x04 (0000ms, 0382ms total)
T2748 002:670 JLINK_ReadMemEx(0x40006098, 0x0004 Bytes, ..., Flags = 0x02000004) -- CPU_ReadMem(4 bytes @ 0x40006098) - Data: 00 00 00 00  returns 0x04 (0000ms, 0382ms total)
T2748 002:670 JLINK_ReadMemEx(0x4000609C, 0x0004 Bytes, ..., Flags = 0x02000004) -- CPU_ReadMem(4 bytes @ 0x4000609C) - Data: 00 00 00 00  returns 0x04 (0001ms, 0383ms total)
T2748 002:671 JLINK_ReadMemEx(0x4000609C, 0x0004 Bytes, ..., Flags = 0x02000004) -- CPU_ReadMem(4 bytes @ 0x4000609C) - Data: 00 00 00 00  returns 0x04 (0000ms, 0383ms total)
T2748 002:671 JLINK_ReadMemEx(0x400060AC, 0x0014 Bytes, ..., Flags = 0x02000004) -- CPU_ReadMem(20 bytes @ 0x400060AC) - Data: 00 00 00 00 00 00 00 00 00 00 00 00 00 00 00 00 ...  returns 0x14 (0001ms, 0384ms total)
T2748 002:672 JLINK_ReadMemEx(0x400060AC, 0x0004 Bytes, ..., Flags = 0x02000004) -- CPU_ReadMem(4 bytes @ 0x400060AC) - Data: 00 00 00 00  returns 0x04 (0000ms, 0384ms total)
T2748 002:672 JLINK_ReadMemEx(0x400060B0, 0x0004 Bytes, ..., Flags = 0x02000004) -- CPU_ReadMem(4 bytes @ 0x400060B0) - Data: 00 00 00 00  returns 0x04 (0001ms, 0385ms total)
T2748 002:673 JLINK_ReadMemEx(0x400060B4, 0x0004 Bytes, ..., Flags = 0x02000004) -- CPU_ReadMem(4 bytes @ 0x400060B4) - Data: 00 00 00 00  returns 0x04 (0000ms, 0385ms total)
T2748 002:673 JLINK_ReadMemEx(0x400060B8, 0x0004 Bytes, ..., Flags = 0x02000004) -- CPU_ReadMem(4 bytes @ 0x400060B8) - Data: 00 00 00 00  returns 0x04 (0001ms, 0386ms total)
T2748 002:674 JLINK_ReadMemEx(0x400060BC, 0x0004 Bytes, ..., Flags = 0x02000004) -- CPU_ReadMem(4 bytes @ 0x400060BC) - Data: 00 00 00 00  returns 0x04 (0000ms, 0386ms total)
